T1258 000:002.731   SEGGER J-Link V8.10c Log File
T1258 000:002.807   DLL Compiled: Oct 16 2024 16:14:07
T1258 000:002.810   Logging started @ 2025-07-26 07:47
T1258 000:002.813   Process: D:\keil\UV4\UV4.exe
T1258 000:002.817 - 2.816ms
T1258 000:002.823 JLINK_SetWarnOutHandler(...)
T1258 000:002.825 - 0.004ms
T1258 000:002.830 JLINK_OpenEx(...)
T1258 000:004.601   Firmware: J-Link V12 compiled Oct  9 2024 10:52:31
T1258 000:005.395   Firmware: J-Link V12 compiled Oct  9 2024 10:52:31
T1258 000:025.759   Hardware: V12.00
T1258 000:025.767   S/N: 601012352
T1258 000:025.770   OEM: SEGGER
T1258 000:025.774   Feature(s): RDI, FlashBP, FlashDL, JFlash, GDB
T1258 000:026.558   Bootloader: (FW returned invalid version)
T1258 000:026.996   USB speed mode: High speed (480 MBit/s)
T1258 000:027.001   Active J-Link Eco level: 3 (https://wiki.segger.com/J-Link_Eco)
T1258 000:027.321   TELNET listener socket opened on port 19021
T1258 000:027.364   WEBSRV WEBSRV_Init(): Starting webserver thread(s)
T1258 000:027.446   WEBSRV Webserver running on local port 19080
T1258 000:027.492   Looking for J-Link GUI Server exe at: D:\keil\ARM\Segger\JLinkGUIServer.exe
T1258 000:027.545   Looking for J-Link GUI Server exe at: C:\Program Files\SEGGER\JLink_V810c\JLinkGUIServer.exe
T1258 000:027.562   Forking J-Link GUI Server: C:\Program Files\SEGGER\JLink_V810c\JLinkGUIServer.exe
T1258 000:035.847   J-Link GUI Server info: "J-Link GUI server V8.10c "
T1258 000:036.153 - 33.316ms returns "O.K."
T1258 000:036.171 JLINK_GetEmuCaps()
T1258 000:036.179 - 0.006ms returns 0xB9FF7BBF
T1258 000:036.187 JLINK_TIF_GetAvailable(...)
T1258 000:036.442 - 0.254ms
T1258 000:036.457 JLINK_SetErrorOutHandler(...)
T1258 000:036.461 - 0.005ms
T1258 000:036.482 JLINK_ExecCommand("ProjectFile = "F:\LKX\project\GH1413\code\1216\1216\08.IPMI_PWR_2\USER\JLinkSettings.ini"", ...). 
T1258 000:045.488   Ref file found at: D:\keil\ARM\Segger\JLinkDevices.ref
T1258 000:045.551   REF file references invalid XML file: C:\Program Files\SEGGER\JLink_V810c\JLinkDevices.xml
T1258 000:046.653 - 10.172ms returns 0x00
T1258 000:047.306 JLINK_ExecCommand("Device = STM32F405RGTx", ...). 
T1258 000:048.893   Device "STM32F405RG" selected.
T1258 000:049.141 - 1.827ms returns 0x00
T1258 000:049.149 JLINK_ExecCommand("DisableConnectionTimeout", ...). 
T1258 000:049.156   ERROR: Unknown command
T1258 000:049.160 - 0.007ms returns 0x01
T1258 000:049.164 JLINK_GetHardwareVersion()
T1258 000:049.168 - 0.003ms returns 120000
T1258 000:049.171 JLINK_GetDLLVersion()
T1258 000:049.174 - 0.002ms returns 81003
T1258 000:049.177 JLINK_GetOEMString(...)
T1258 000:049.181 JLINK_GetFirmwareString(...)
T1258 000:049.183 - 0.002ms
T1258 000:050.393 JLINK_GetDLLVersion()
T1258 000:050.398 - 0.004ms returns 81003
T1258 000:050.401 JLINK_GetCompileDateTime()
T1258 000:050.403 - 0.002ms
T1258 000:050.779 JLINK_GetFirmwareString(...)
T1258 000:050.783 - 0.003ms
T1258 000:051.153 JLINK_GetHardwareVersion()
T1258 000:051.157 - 0.003ms returns 120000
T1258 000:051.536 JLINK_GetSN()
T1258 000:051.540 - 0.003ms returns 601012352
T1258 000:054.119 JLINK_GetOEMString(...)
T1258 000:056.575 JLINK_TIF_Select(JLINKARM_TIF_SWD)
T1258 000:057.394 - 0.818ms returns 0x00
T1258 000:057.399 JLINK_HasError()
T1258 000:057.408 JLINK_SetSpeed(5000)
T1258 000:057.591 - 0.183ms
T1258 000:057.595 JLINK_GetId()
T1258 000:058.811   InitTarget() start
T1258 000:058.824    J-Link Script File: Executing InitTarget()
T1258 000:060.173   SWD selected. Executing JTAG -> SWD switching sequence.
T1258 000:063.531   DAP initialized successfully.
T1258 000:070.136   InitTarget() end - Took 10.1ms
T1258 000:071.686   Found SW-DP with ID 0x2BA01477
T1258 000:074.512   DPIDR: 0x2BA01477
T1258 000:075.619   CoreSight SoC-400 or earlier
T1258 000:076.715   Scanning AP map to find all available APs
T1258 000:078.407   AP[1]: Stopped AP scan as end of AP map has been reached
T1258 000:079.524   AP[0]: AHB-AP (IDR: 0x24770011, ADDR: 0x00000000)
T1258 000:080.883   Iterating through AP map to find AHB-AP to use
T1258 000:082.752   AP[0]: Core found
T1258 000:083.884   AP[0]: AHB-AP ROM base: 0xE00FF000
T1258 000:087.906   CPUID register: 0x410FC241. Implementer code: 0x41 (ARM)
T1258 000:089.280   Found Cortex-M4 r0p1, Little endian.
T1258 000:089.717   -- Max. mem block: 0x00003BA8
T1258 000:091.657   Cortex-M: The connected J-Link (S/N 601012352) uses an old firmware module: V1 (current is 3)
T1258 000:091.677   CPU_ReadMem(4 bytes @ 0xE000EDF0)
T1258 000:092.044   CPU_ReadMem(4 bytes @ 0xE0002000)
T1258 000:093.677   FPUnit: 6 code (BP) slots and 2 literal slots
T1258 000:093.689   CPU_ReadMem(4 bytes @ 0xE000EDFC)
T1258 000:094.003   CPU_WriteMem(4 bytes @ 0xE000EDFC)
T1258 000:094.374   CPU_ReadMem(4 bytes @ 0xE0001000)
T1258 000:094.664   CPU_WriteMem(4 bytes @ 0xE0001000)
T1258 000:095.090   CPU_ReadMem(4 bytes @ 0xE000ED88)
T1258 000:095.435   CPU_WriteMem(4 bytes @ 0xE000ED88)
T1258 000:096.025   CPU_ReadMem(4 bytes @ 0xE000ED88)
T1258 000:096.336   CPU_WriteMem(4 bytes @ 0xE000ED88)
T1258 000:098.024   CoreSight components:
T1258 000:099.357   ROMTbl[0] @ E00FF000
T1258 000:099.368   CPU_ReadMem(64 bytes @ 0xE00FF000)
T1258 000:099.963   CPU_ReadMem(32 bytes @ 0xE000EFE0)
T1258 000:104.548   [0][0]: E000E000 CID B105E00D PID 000BB00C SCS-M7
T1258 000:104.562   CPU_ReadMem(32 bytes @ 0xE0001FE0)
T1258 000:106.379   [0][1]: E0001000 CID B105E00D PID 003BB002 DWT
T1258 000:106.391   CPU_ReadMem(32 bytes @ 0xE0002FE0)
T1258 000:108.274   [0][2]: E0002000 CID B105E00D PID 002BB003 FPB
T1258 000:108.288   CPU_ReadMem(32 bytes @ 0xE0000FE0)
T1258 000:110.089   [0][3]: E0000000 CID B105E00D PID 003BB001 ITM
T1258 000:110.101   CPU_ReadMem(32 bytes @ 0xE0040FE0)
T1258 000:111.759   [0][4]: E0040000 CID B105900D PID 000BB9A1 TPIU
T1258 000:111.770   CPU_ReadMem(32 bytes @ 0xE0041FE0)
T1258 000:113.559   [0][5]: E0041000 CID B105900D PID 000BB925 ETM
T1258 000:113.809 - 56.212ms returns 0x2BA01477
T1258 000:113.819 JLINK_GetDLLVersion()
T1258 000:113.822 - 0.003ms returns 81003
T1258 000:113.853 JLINK_CORE_GetFound()
T1258 000:113.856 - 0.003ms returns 0xE0000FF
T1258 000:113.861 JLINK_GetDebugInfo(0x100 = JLINKARM_ROM_TABLE_ADDR_INDEX)
T1258 000:113.865   Value=0xE00FF000
T1258 000:113.870 - 0.008ms returns 0
T1258 000:115.229 JLINK_GetDebugInfo(0x100 = JLINKARM_ROM_TABLE_ADDR_INDEX)
T1258 000:115.237   Value=0xE00FF000
T1258 000:115.242 - 0.013ms returns 0
T1258 000:115.247 JLINK_GetDebugInfo(0x101 = JLINKARM_DEBUG_INFO_ETM_ADDR_INDEX)
T1258 000:115.250   Value=0xE0041000
T1258 000:115.255 - 0.008ms returns 0
T1258 000:115.260 JLINK_ReadMemEx(0xE0041FD0, 0x20 Bytes, Flags = 0x02000004)
T1258 000:115.278   CPU_ReadMem(32 bytes @ 0xE0041FD0)
T1258 000:115.737   Data:  04 00 00 00 00 00 00 00 00 00 00 00 00 00 00 00 ...
T1258 000:115.742 - 0.482ms returns 32 (0x20)
T1258 000:115.747 JLINK_GetDebugInfo(0x102 = JLINKARM_DEBUG_INFO_MTB_ADDR_INDEX)
T1258 000:115.750   Value=0x00000000
T1258 000:115.755 - 0.008ms returns 0
T1258 000:115.759 JLINK_GetDebugInfo(0x103 = JLINKARM_DEBUG_INFO_TPIU_ADDR_INDEX)
T1258 000:115.762   Value=0xE0040000
T1258 000:115.766 - 0.007ms returns 0
T1258 000:115.771 JLINK_GetDebugInfo(0x104 = JLINKARM_DEBUG_INFO_ITM_ADDR_INDEX)
T1258 000:115.774   Value=0xE0000000
T1258 000:115.778 - 0.007ms returns 0
T1258 000:115.782 JLINK_GetDebugInfo(0x105 = JLINKARM_DEBUG_INFO_DWT_ADDR_INDEX)
T1258 000:115.785   Value=0xE0001000
T1258 000:115.790 - 0.007ms returns 0
T1258 000:115.794 JLINK_GetDebugInfo(0x106 = JLINKARM_DEBUG_INFO_FPB_ADDR_INDEX)
T1258 000:115.797   Value=0xE0002000
T1258 000:115.801 - 0.007ms returns 0
T1258 000:115.805 JLINK_GetDebugInfo(0x107 = JLINKARM_DEBUG_INFO_NVIC_ADDR_INDEX)
T1258 000:115.808   Value=0xE000E000
T1258 000:115.813 - 0.007ms returns 0
T1258 000:115.817 JLINK_GetDebugInfo(0x10C = JLINKARM_DEBUG_INFO_DBG_ADDR_INDEX)
T1258 000:115.820   Value=0xE000EDF0
T1258 000:115.824 - 0.007ms returns 0
T1258 000:115.828 JLINK_GetDebugInfo(0x01 = Unknown)
T1258 000:115.831   Value=0x00000001
T1258 000:115.836 - 0.007ms returns 0
T1258 000:115.845 JLINK_ReadMemU32(0xE000ED00, 0x1 Items)
T1258 000:115.850   CPU_ReadMem(4 bytes @ 0xE000ED00)
T1258 000:116.162   Data:  41 C2 0F 41
T1258 000:116.167   Debug reg: CPUID
T1258 000:116.172 - 0.326ms returns 1 (0x1)
T1258 000:116.177 JLINK_GetDebugInfo(0x10F = JLINKARM_DEBUG_INFO_HAS_CORTEX_M_SECURITY_EXT_INDEX)
T1258 000:116.180   Value=0x00000000
T1258 000:116.185 - 0.008ms returns 0
T1258 000:116.189 JLINK_HasError()
T1258 000:116.194 JLINK_SetResetType(JLINKARM_CM3_RESET_TYPE_NORMAL)
T1258 000:116.198 - 0.003ms returns JLINKARM_CM3_RESET_TYPE_NORMAL
T1258 000:116.202 JLINK_Reset()
T1258 000:116.208   JLINK_GetResetTypeDesc
T1258 000:116.211   - 0.003ms
T1258 000:117.510   Reset type: NORMAL (https://wiki.segger.com/J-Link_Reset_Strategies)
T1258 000:117.522   CPU is running
T1258 000:117.529   CPU_WriteMem(4 bytes @ 0xE000EDF0)
T1258 000:117.979   CPU is running
T1258 000:117.989   CPU_WriteMem(4 bytes @ 0xE000EDFC)
T1258 000:119.830   Reset: Halt core after reset via DEMCR.VC_CORERESET.
T1258 000:121.751   Reset: Reset device via AIRCR.SYSRESETREQ.
T1258 000:121.762   CPU is running
T1258 000:121.768   CPU_WriteMem(4 bytes @ 0xE000ED0C)
T1258 000:175.265   CPU_ReadMem(4 bytes @ 0xE000EDF0)
T1258 000:175.589   CPU_ReadMem(4 bytes @ 0xE000EDF0)
T1258 000:178.312   CPU_WriteMem(4 bytes @ 0xE000EDFC)
T1258 000:184.078   CPU_ReadMem(4 bytes @ 0xE000EDF0)
T1258 000:187.218   CPU_WriteMem(4 bytes @ 0xE0002000)
T1258 000:187.583   CPU_ReadMem(4 bytes @ 0xE000EDFC)
T1258 000:187.936   CPU_ReadMem(4 bytes @ 0xE0001000)
T1258 000:188.277 - 72.075ms
T1258 000:188.291 JLINK_Halt()
T1258 000:188.296 - 0.005ms returns 0x00
T1258 000:188.304 JLINK_ReadMemU32(0xE000EDF0, 0x1 Items)
T1258 000:188.315   CPU_ReadMem(4 bytes @ 0xE000EDF0)
T1258 000:188.666   Data:  03 00 03 00
T1258 000:188.675   Debug reg: DHCSR
T1258 000:188.681 - 0.377ms returns 1 (0x1)
T1258 000:188.693 JLINK_WriteU32(0xE000EDF0, 0xA05F0003)
T1258 000:188.698   Debug reg: DHCSR
T1258 000:188.950   CPU_WriteMem(4 bytes @ 0xE000EDF0)
T1258 000:189.313 - 0.624ms returns 0 (0x00000000)
T1258 000:189.323 JLINK_WriteU32(0xE000EDFC, 0x01000000)
T1258 000:189.356   Debug reg: DEMCR
T1258 000:189.366   CPU_WriteMem(4 bytes @ 0xE000EDFC)
T1258 000:189.728 - 0.404ms returns 0 (0x00000000)
T1258 000:198.947 JLINK_GetHWStatus(...)
T1258 000:199.321 - 0.374ms returns 0
T1258 000:207.703 JLINK_GetNumBPUnits(Type = 0xFFFFFF00)
T1258 000:207.724 - 0.020ms returns 0x06
T1258 000:207.732 JLINK_GetNumBPUnits(Type = 0xF0)
T1258 000:207.738 - 0.006ms returns 0x2000
T1258 000:207.745 JLINK_GetNumWPUnits()
T1258 000:207.750 - 0.005ms returns 4
T1258 000:213.533 JLINK_GetSpeed()
T1258 000:213.547 - 0.013ms returns 5000
T1258 000:215.790 JLINK_ReadMemU32(0xE000E004, 0x1 Items)
T1258 000:215.812   CPU_ReadMem(4 bytes @ 0xE000E004)
T1258 000:216.266   Data:  02 00 00 00
T1258 000:216.272 - 0.482ms returns 1 (0x1)
T1258 000:216.277 JLINK_ReadMemU32(0xE000E004, 0x1 Items)
T1258 000:216.282   CPU_ReadMem(4 bytes @ 0xE000E004)
T1258 000:216.701   Data:  02 00 00 00
T1258 000:216.706 - 0.428ms returns 1 (0x1)
T1258 000:216.710 JLINK_WriteMemEx(0xE0001000, 0x0000001C Bytes, Flags = 0x02000004)
T1258 000:216.713   Data:  01 00 00 00 00 00 00 00 00 00 00 00 00 00 00 00 ...
T1258 000:216.722   CPU_WriteMem(28 bytes @ 0xE0001000)
T1258 000:217.170 - 0.460ms returns 0x1C
T1258 000:217.179 JLINK_Halt()
T1258 000:217.183 - 0.003ms returns 0x00
T1258 000:217.186 JLINK_IsHalted()
T1258 000:217.190 - 0.003ms returns TRUE
T1258 000:218.853 JLINK_WriteMem(0x20000000, 0x184 Bytes, ...)
T1258 000:218.860   Data:  00 BE 0A E0 0D 78 2D 06 68 40 08 24 40 00 00 D3 ...
T1258 000:219.097   CPU_WriteMem(388 bytes @ 0x20000000)
T1258 000:220.772 - 1.919ms returns 0x184
T1258 000:220.813 JLINK_HasError()
T1258 000:220.823 JLINK_WriteReg(R0, 0x08000000)
T1258 000:220.831 - 0.008ms returns 0
T1258 000:220.837 JLINK_WriteReg(R1, 0x00B71B00)
T1258 000:220.843 - 0.005ms returns 0
T1258 000:220.849 JLINK_WriteReg(R2, 0x00000001)
T1258 000:220.859 - 0.010ms returns 0
T1258 000:220.868 JLINK_WriteReg(R3, 0x00000000)
T1258 000:220.873 - 0.005ms returns 0
T1258 000:220.880 JLINK_WriteReg(R4, 0x00000000)
T1258 000:220.885 - 0.005ms returns 0
T1258 000:220.891 JLINK_WriteReg(R5, 0x00000000)
T1258 000:220.896 - 0.005ms returns 0
T1258 000:220.902 JLINK_WriteReg(R6, 0x00000000)
T1258 000:220.907 - 0.005ms returns 0
T1258 000:220.914 JLINK_WriteReg(R7, 0x00000000)
T1258 000:220.919 - 0.005ms returns 0
T1258 000:220.932 JLINK_WriteReg(R8, 0x00000000)
T1258 000:220.938 - 0.013ms returns 0
T1258 000:220.944 JLINK_WriteReg(R9, 0x20000180)
T1258 000:220.949 - 0.005ms returns 0
T1258 000:220.955 JLINK_WriteReg(R10, 0x00000000)
T1258 000:220.960 - 0.005ms returns 0
T1258 000:220.966 JLINK_WriteReg(R11, 0x00000000)
T1258 000:220.972 - 0.005ms returns 0
T1258 000:220.978 JLINK_WriteReg(R12, 0x00000000)
T1258 000:220.983 - 0.005ms returns 0
T1258 000:220.991 JLINK_WriteReg(R13 (SP), 0x20001000)
T1258 000:221.005 - 0.015ms returns 0
T1258 000:221.010 JLINK_WriteReg(R14, 0x20000001)
T1258 000:221.013 - 0.003ms returns 0
T1258 000:221.022 JLINK_WriteReg(R15 (PC), 0x20000054)
T1258 000:221.025 - 0.008ms returns 0
T1258 000:221.029 JLINK_WriteReg(XPSR, 0x01000000)
T1258 000:221.032 - 0.003ms returns 0
T1258 000:221.036 JLINK_WriteReg(MSP, 0x20001000)
T1258 000:221.038 - 0.003ms returns 0
T1258 000:221.042 JLINK_WriteReg(PSP, 0x20001000)
T1258 000:221.045 - 0.003ms returns 0
T1258 000:221.048 JLINK_WriteReg(CFBP, 0x00000000)
T1258 000:221.051 - 0.003ms returns 0
T1258 000:221.056 JLINK_SetBPEx(Addr = 0x20000000, Type = 0xFFFFFFF2)
T1258 000:221.062   CPU_ReadMem(2 bytes @ 0x20000000)
T1258 000:221.416 - 0.360ms returns 0x00000001
T1258 000:221.421 JLINK_Go()
T1258 000:221.425   CPU_WriteMem(2 bytes @ 0x20000000)
T1258 000:221.922   CPU_ReadMem(4 bytes @ 0xE0001000)
T1258 000:222.289   CPU_WriteMem(4 bytes @ 0xE0002008)
T1258 000:222.294   CPU_WriteMem(4 bytes @ 0xE000200C)
T1258 000:222.298   CPU_WriteMem(4 bytes @ 0xE0002010)
T1258 000:222.303   CPU_WriteMem(4 bytes @ 0xE0002014)
T1258 000:222.307   CPU_WriteMem(4 bytes @ 0xE0002018)
T1258 000:222.311   CPU_WriteMem(4 bytes @ 0xE000201C)
T1258 000:223.803   CPU_WriteMem(4 bytes @ 0xE0001004)
T1258 000:228.184   Memory map 'after startup completion point' is active
T1258 000:228.195 - 6.773ms
T1258 000:228.201 JLINK_IsHalted()
T1258 000:230.734   CPU_ReadMem(2 bytes @ 0x20000000)
T1258 000:231.128 - 2.927ms returns TRUE
T1258 000:231.133 JLINK_ReadReg(R15 (PC))
T1258 000:231.137 - 0.004ms returns 0x20000000
T1258 000:231.141 JLINK_ClrBPEx(BPHandle = 0x00000001)
T1258 000:231.145 - 0.003ms returns 0x00
T1258 000:231.148 JLINK_ReadReg(R0)
T1258 000:231.152 - 0.003ms returns 0x00000000
T1258 000:231.494 JLINK_HasError()
T1258 000:231.501 JLINK_WriteReg(R0, 0x08000000)
T1258 000:231.505 - 0.004ms returns 0
T1258 000:231.509 JLINK_WriteReg(R1, 0x00004000)
T1258 000:231.512 - 0.003ms returns 0
T1258 000:231.515 JLINK_WriteReg(R2, 0x000000FF)
T1258 000:231.518 - 0.003ms returns 0
T1258 000:231.522 JLINK_WriteReg(R3, 0x00000000)
T1258 000:231.525 - 0.003ms returns 0
T1258 000:231.528 JLINK_WriteReg(R4, 0x00000000)
T1258 000:231.531 - 0.002ms returns 0
T1258 000:231.535 JLINK_WriteReg(R5, 0x00000000)
T1258 000:231.538 - 0.003ms returns 0
T1258 000:231.541 JLINK_WriteReg(R6, 0x00000000)
T1258 000:231.544 - 0.002ms returns 0
T1258 000:231.548 JLINK_WriteReg(R7, 0x00000000)
T1258 000:231.551 - 0.003ms returns 0
T1258 000:231.554 JLINK_WriteReg(R8, 0x00000000)
T1258 000:231.557 - 0.003ms returns 0
T1258 000:231.561 JLINK_WriteReg(R9, 0x20000180)
T1258 000:231.564 - 0.003ms returns 0
T1258 000:231.567 JLINK_WriteReg(R10, 0x00000000)
T1258 000:231.570 - 0.003ms returns 0
T1258 000:231.574 JLINK_WriteReg(R11, 0x00000000)
T1258 000:231.577 - 0.003ms returns 0
T1258 000:231.580 JLINK_WriteReg(R12, 0x00000000)
T1258 000:231.583 - 0.003ms returns 0
T1258 000:231.587 JLINK_WriteReg(R13 (SP), 0x20001000)
T1258 000:231.590 - 0.003ms returns 0
T1258 000:231.633 JLINK_WriteReg(R14, 0x20000001)
T1258 000:231.638 - 0.005ms returns 0
T1258 000:231.641 JLINK_WriteReg(R15 (PC), 0x20000020)
T1258 000:231.645 - 0.003ms returns 0
T1258 000:231.648 JLINK_WriteReg(XPSR, 0x01000000)
T1258 000:231.651 - 0.003ms returns 0
T1258 000:231.655 JLINK_WriteReg(MSP, 0x20001000)
T1258 000:231.657 - 0.003ms returns 0
T1258 000:231.661 JLINK_WriteReg(PSP, 0x20001000)
T1258 000:231.664 - 0.003ms returns 0
T1258 000:231.667 JLINK_WriteReg(CFBP, 0x00000000)
T1258 000:231.670 - 0.003ms returns 0
T1258 000:231.674 JLINK_SetBPEx(Addr = 0x20000000, Type = 0xFFFFFFF2)
T1258 000:231.678 - 0.004ms returns 0x00000002
T1258 000:231.682 JLINK_Go()
T1258 000:231.691   CPU_ReadMem(4 bytes @ 0xE0001000)
T1258 000:234.523 - 2.841ms
T1258 000:234.532 JLINK_IsHalted()
T1258 000:237.185   CPU_ReadMem(2 bytes @ 0x20000000)
T1258 000:237.482 - 2.949ms returns TRUE
T1258 000:237.487 JLINK_ReadReg(R15 (PC))
T1258 000:237.491 - 0.004ms returns 0x20000000
T1258 000:237.495 JLINK_ClrBPEx(BPHandle = 0x00000002)
T1258 000:237.498 - 0.003ms returns 0x00
T1258 000:237.502 JLINK_ReadReg(R0)
T1258 000:237.505 - 0.003ms returns 0x00000001
T1258 000:237.509 JLINK_HasError()
T1258 000:237.513 JLINK_WriteReg(R0, 0x08000000)
T1258 000:237.516 - 0.003ms returns 0
T1258 000:237.520 JLINK_WriteReg(R1, 0x00004000)
T1258 000:237.523 - 0.003ms returns 0
T1258 000:237.526 JLINK_WriteReg(R2, 0x000000FF)
T1258 000:237.529 - 0.003ms returns 0
T1258 000:237.533 JLINK_WriteReg(R3, 0x00000000)
T1258 000:237.536 - 0.002ms returns 0
T1258 000:237.540 JLINK_WriteReg(R4, 0x00000000)
T1258 000:237.542 - 0.003ms returns 0
T1258 000:237.546 JLINK_WriteReg(R5, 0x00000000)
T1258 000:237.549 - 0.002ms returns 0
T1258 000:237.552 JLINK_WriteReg(R6, 0x00000000)
T1258 000:237.555 - 0.002ms returns 0
T1258 000:237.559 JLINK_WriteReg(R7, 0x00000000)
T1258 000:237.562 - 0.003ms returns 0
T1258 000:237.565 JLINK_WriteReg(R8, 0x00000000)
T1258 000:237.568 - 0.003ms returns 0
T1258 000:237.572 JLINK_WriteReg(R9, 0x20000180)
T1258 000:237.575 - 0.002ms returns 0
T1258 000:237.578 JLINK_WriteReg(R10, 0x00000000)
T1258 000:237.581 - 0.003ms returns 0
T1258 000:237.585 JLINK_WriteReg(R11, 0x00000000)
T1258 000:237.588 - 0.002ms returns 0
T1258 000:237.591 JLINK_WriteReg(R12, 0x00000000)
T1258 000:237.594 - 0.003ms returns 0
T1258 000:237.598 JLINK_WriteReg(R13 (SP), 0x20001000)
T1258 000:237.601 - 0.003ms returns 0
T1258 000:237.604 JLINK_WriteReg(R14, 0x20000001)
T1258 000:237.607 - 0.003ms returns 0
T1258 000:237.611 JLINK_WriteReg(R15 (PC), 0x200000C0)
T1258 000:237.614 - 0.003ms returns 0
T1258 000:237.617 JLINK_WriteReg(XPSR, 0x01000000)
T1258 000:237.620 - 0.003ms returns 0
T1258 000:237.624 JLINK_WriteReg(MSP, 0x20001000)
T1258 000:237.627 - 0.003ms returns 0
T1258 000:237.630 JLINK_WriteReg(PSP, 0x20001000)
T1258 000:237.633 - 0.003ms returns 0
T1258 000:237.637 JLINK_WriteReg(CFBP, 0x00000000)
T1258 000:237.640 - 0.002ms returns 0
T1258 000:237.644 JLINK_SetBPEx(Addr = 0x20000000, Type = 0xFFFFFFF2)
T1258 000:237.647 - 0.003ms returns 0x00000003
T1258 000:237.650 JLINK_Go()
T1258 000:237.657   CPU_ReadMem(4 bytes @ 0xE0001000)
T1258 000:240.717 - 3.064ms
T1258 000:240.773 JLINK_IsHalted()
T1258 000:241.216 - 0.442ms returns FALSE
T1258 000:241.237 JLINK_HasError()
T1258 000:248.220 JLINK_IsHalted()
T1258 000:248.653 - 0.433ms returns FALSE
T1258 000:248.680 JLINK_HasError()
T1258 000:250.083 JLINK_IsHalted()
T1258 000:250.456 - 0.372ms returns FALSE
T1258 000:250.467 JLINK_HasError()
T1258 000:253.295 JLINK_IsHalted()
T1258 000:253.667 - 0.372ms returns FALSE
T1258 000:253.676 JLINK_HasError()
T1258 000:255.046 JLINK_IsHalted()
T1258 000:255.561 - 0.516ms returns FALSE
T1258 000:255.566 JLINK_HasError()
T1258 000:257.045 JLINK_IsHalted()
T1258 000:257.477 - 0.432ms returns FALSE
T1258 000:257.481 JLINK_HasError()
T1258 000:259.088 JLINK_IsHalted()
T1258 000:259.478 - 0.393ms returns FALSE
T1258 000:259.483 JLINK_HasError()
T1258 000:262.048 JLINK_IsHalted()
T1258 000:262.563 - 0.517ms returns FALSE
T1258 000:262.568 JLINK_HasError()
T1258 000:264.038 JLINK_IsHalted()
T1258 000:264.675 - 0.634ms returns FALSE
T1258 000:264.718 JLINK_HasError()
T1258 000:266.031 JLINK_IsHalted()
T1258 000:266.369 - 0.337ms returns FALSE
T1258 000:266.378 JLINK_HasError()
T1258 000:269.065 JLINK_IsHalted()
T1258 000:269.439 - 0.375ms returns FALSE
T1258 000:269.450 JLINK_HasError()
T1258 000:271.049 JLINK_IsHalted()
T1258 000:271.436 - 0.389ms returns FALSE
T1258 000:271.441 JLINK_HasError()
T1258 000:273.249 JLINK_IsHalted()
T1258 000:273.538 - 0.289ms returns FALSE
T1258 000:273.543 JLINK_HasError()
T1258 000:275.243 JLINK_IsHalted()
T1258 000:275.517 - 0.274ms returns FALSE
T1258 000:275.522 JLINK_HasError()
T1258 000:278.045 JLINK_IsHalted()
T1258 000:278.582 - 0.538ms returns FALSE
T1258 000:278.586 JLINK_HasError()
T1258 000:280.038 JLINK_IsHalted()
T1258 000:280.592 - 0.553ms returns FALSE
T1258 000:280.617 JLINK_HasError()
T1258 000:281.994 JLINK_IsHalted()
T1258 000:282.332 - 0.337ms returns FALSE
T1258 000:282.337 JLINK_HasError()
T1258 000:284.232 JLINK_IsHalted()
T1258 000:284.520 - 0.287ms returns FALSE
T1258 000:284.530 JLINK_HasError()
T1258 000:286.042 JLINK_IsHalted()
T1258 000:286.622 - 0.581ms returns FALSE
T1258 000:286.626 JLINK_HasError()
T1258 000:288.038 JLINK_IsHalted()
T1258 000:288.581 - 0.544ms returns FALSE
T1258 000:288.585 JLINK_HasError()
T1258 000:289.993 JLINK_IsHalted()
T1258 000:290.310 - 0.317ms returns FALSE
T1258 000:290.315 JLINK_HasError()
T1258 000:293.053 JLINK_IsHalted()
T1258 000:293.560 - 0.508ms returns FALSE
T1258 000:293.564 JLINK_HasError()
T1258 000:295.040 JLINK_IsHalted()
T1258 000:295.539 - 0.499ms returns FALSE
T1258 000:295.543 JLINK_HasError()
T1258 000:297.066 JLINK_IsHalted()
T1258 000:297.518 - 0.453ms returns FALSE
T1258 000:297.523 JLINK_HasError()
T1258 000:299.206 JLINK_IsHalted()
T1258 000:299.579 - 0.372ms returns FALSE
T1258 000:299.594 JLINK_HasError()
T1258 000:302.287 JLINK_IsHalted()
T1258 000:304.926   CPU_ReadMem(2 bytes @ 0x20000000)
T1258 000:305.283 - 2.996ms returns TRUE
T1258 000:305.296 JLINK_ReadReg(R15 (PC))
T1258 000:305.304 - 0.008ms returns 0x20000000
T1258 000:305.311 JLINK_ClrBPEx(BPHandle = 0x00000003)
T1258 000:305.317 - 0.006ms returns 0x00
T1258 000:305.324 JLINK_ReadReg(R0)
T1258 000:305.330 - 0.006ms returns 0x00000000
T1258 000:305.640 JLINK_HasError()
T1258 000:305.653 JLINK_WriteReg(R0, 0x00000001)
T1258 000:305.661 - 0.007ms returns 0
T1258 000:305.667 JLINK_WriteReg(R1, 0x00004000)
T1258 000:305.672 - 0.005ms returns 0
T1258 000:305.678 JLINK_WriteReg(R2, 0x000000FF)
T1258 000:305.684 - 0.005ms returns 0
T1258 000:305.690 JLINK_WriteReg(R3, 0x00000000)
T1258 000:305.695 - 0.005ms returns 0
T1258 000:305.701 JLINK_WriteReg(R4, 0x00000000)
T1258 000:305.706 - 0.005ms returns 0
T1258 000:305.713 JLINK_WriteReg(R5, 0x00000000)
T1258 000:305.718 - 0.005ms returns 0
T1258 000:305.724 JLINK_WriteReg(R6, 0x00000000)
T1258 000:305.729 - 0.005ms returns 0
T1258 000:305.735 JLINK_WriteReg(R7, 0x00000000)
T1258 000:305.740 - 0.005ms returns 0
T1258 000:305.746 JLINK_WriteReg(R8, 0x00000000)
T1258 000:305.752 - 0.005ms returns 0
T1258 000:305.758 JLINK_WriteReg(R9, 0x20000180)
T1258 000:305.763 - 0.005ms returns 0
T1258 000:305.770 JLINK_WriteReg(R10, 0x00000000)
T1258 000:305.775 - 0.005ms returns 0
T1258 000:305.781 JLINK_WriteReg(R11, 0x00000000)
T1258 000:305.787 - 0.005ms returns 0
T1258 000:305.793 JLINK_WriteReg(R12, 0x00000000)
T1258 000:305.798 - 0.005ms returns 0
T1258 000:305.804 JLINK_WriteReg(R13 (SP), 0x20001000)
T1258 000:305.810 - 0.005ms returns 0
T1258 000:305.816 JLINK_WriteReg(R14, 0x20000001)
T1258 000:305.821 - 0.005ms returns 0
T1258 000:305.827 JLINK_WriteReg(R15 (PC), 0x20000086)
T1258 000:305.833 - 0.005ms returns 0
T1258 000:305.839 JLINK_WriteReg(XPSR, 0x01000000)
T1258 000:305.844 - 0.005ms returns 0
T1258 000:305.850 JLINK_WriteReg(MSP, 0x20001000)
T1258 000:305.856 - 0.005ms returns 0
T1258 000:305.868 JLINK_WriteReg(PSP, 0x20001000)
T1258 000:305.877 - 0.009ms returns 0
T1258 000:305.884 JLINK_WriteReg(CFBP, 0x00000000)
T1258 000:305.889 - 0.005ms returns 0
T1258 000:305.896 JLINK_SetBPEx(Addr = 0x20000000, Type = 0xFFFFFFF2)
T1258 000:305.903 - 0.007ms returns 0x00000004
T1258 000:305.909 JLINK_Go()
T1258 000:305.924   CPU_ReadMem(4 bytes @ 0xE0001000)
T1258 000:308.856 - 2.946ms
T1258 000:308.869 JLINK_IsHalted()
T1258 000:311.291   CPU_ReadMem(2 bytes @ 0x20000000)
T1258 000:311.616 - 2.746ms returns TRUE
T1258 000:311.630 JLINK_ReadReg(R15 (PC))
T1258 000:311.638 - 0.007ms returns 0x20000000
T1258 000:311.645 JLINK_ClrBPEx(BPHandle = 0x00000004)
T1258 000:311.651 - 0.006ms returns 0x00
T1258 000:311.657 JLINK_ReadReg(R0)
T1258 000:311.663 - 0.005ms returns 0x00000000
T1258 000:366.906 JLINK_WriteMem(0x20000000, 0x184 Bytes, ...)
T1258 000:366.920   Data:  00 BE 0A E0 0D 78 2D 06 68 40 08 24 40 00 00 D3 ...
T1258 000:366.938   CPU_WriteMem(388 bytes @ 0x20000000)
T1258 000:368.558 - 1.651ms returns 0x184
T1258 000:368.613 JLINK_HasError()
T1258 000:368.624 JLINK_WriteReg(R0, 0x08000000)
T1258 000:368.633 - 0.009ms returns 0
T1258 000:368.640 JLINK_WriteReg(R1, 0x00B71B00)
T1258 000:368.645 - 0.005ms returns 0
T1258 000:368.650 JLINK_WriteReg(R2, 0x00000002)
T1258 000:368.655 - 0.005ms returns 0
T1258 000:368.661 JLINK_WriteReg(R3, 0x00000000)
T1258 000:368.666 - 0.004ms returns 0
T1258 000:368.671 JLINK_WriteReg(R4, 0x00000000)
T1258 000:368.676 - 0.004ms returns 0
T1258 000:368.682 JLINK_WriteReg(R5, 0x00000000)
T1258 000:368.687 - 0.004ms returns 0
T1258 000:368.692 JLINK_WriteReg(R6, 0x00000000)
T1258 000:368.697 - 0.004ms returns 0
T1258 000:368.703 JLINK_WriteReg(R7, 0x00000000)
T1258 000:368.707 - 0.004ms returns 0
T1258 000:368.713 JLINK_WriteReg(R8, 0x00000000)
T1258 000:368.718 - 0.005ms returns 0
T1258 000:368.723 JLINK_WriteReg(R9, 0x20000180)
T1258 000:368.728 - 0.004ms returns 0
T1258 000:368.735 JLINK_WriteReg(R10, 0x00000000)
T1258 000:368.740 - 0.005ms returns 0
T1258 000:368.747 JLINK_WriteReg(R11, 0x00000000)
T1258 000:368.752 - 0.005ms returns 0
T1258 000:368.758 JLINK_WriteReg(R12, 0x00000000)
T1258 000:368.763 - 0.004ms returns 0
T1258 000:368.802 JLINK_WriteReg(R13 (SP), 0x20001000)
T1258 000:368.821 - 0.019ms returns 0
T1258 000:368.828 JLINK_WriteReg(R14, 0x20000001)
T1258 000:368.833 - 0.005ms returns 0
T1258 000:368.839 JLINK_WriteReg(R15 (PC), 0x20000054)
T1258 000:368.844 - 0.005ms returns 0
T1258 000:368.850 JLINK_WriteReg(XPSR, 0x01000000)
T1258 000:368.855 - 0.005ms returns 0
T1258 000:368.860 JLINK_WriteReg(MSP, 0x20001000)
T1258 000:368.865 - 0.004ms returns 0
T1258 000:368.870 JLINK_WriteReg(PSP, 0x20001000)
T1258 000:368.875 - 0.004ms returns 0
T1258 000:368.881 JLINK_WriteReg(CFBP, 0x00000000)
T1258 000:368.886 - 0.004ms returns 0
T1258 000:368.892 JLINK_SetBPEx(Addr = 0x20000000, Type = 0xFFFFFFF2)
T1258 000:368.905   CPU_ReadMem(2 bytes @ 0x20000000)
T1258 000:369.275 - 0.383ms returns 0x00000005
T1258 000:369.288 JLINK_Go()
T1258 000:369.297   CPU_WriteMem(2 bytes @ 0x20000000)
T1258 000:369.671   CPU_ReadMem(4 bytes @ 0xE0001000)
T1258 000:372.818 - 3.530ms
T1258 000:372.832 JLINK_IsHalted()
T1258 000:375.312   CPU_ReadMem(2 bytes @ 0x20000000)
T1258 000:375.704 - 2.872ms returns TRUE
T1258 000:375.718 JLINK_ReadReg(R15 (PC))
T1258 000:375.725 - 0.007ms returns 0x20000000
T1258 000:375.731 JLINK_ClrBPEx(BPHandle = 0x00000005)
T1258 000:375.737 - 0.005ms returns 0x00
T1258 000:375.743 JLINK_ReadReg(R0)
T1258 000:375.748 - 0.005ms returns 0x00000000
T1258 000:375.986 JLINK_WriteMem(0x20000184, 0x27C Bytes, ...)
T1258 000:375.995   Data:  30 23 00 20 69 02 00 08 65 11 00 08 E9 08 00 08 ...
T1258 000:376.016   CPU_WriteMem(636 bytes @ 0x20000184)
T1258 000:378.521 - 2.535ms returns 0x27C
T1258 000:378.534 JLINK_WriteMem(0x20000400, 0x184 Bytes, ...)
T1258 000:378.540   Data:  FE E7 FE E7 FE E7 FE E7 04 48 05 49 05 4A 06 4B ...
T1258 000:378.553   CPU_WriteMem(388 bytes @ 0x20000400)
T1258 000:380.235 - 1.695ms returns 0x184
T1258 000:380.282 JLINK_HasError()
T1258 000:380.288 JLINK_WriteReg(R0, 0x08000000)
T1258 000:380.295 - 0.007ms returns 0
T1258 000:380.301 JLINK_WriteReg(R1, 0x00000400)
T1258 000:380.306 - 0.004ms returns 0
T1258 000:380.311 JLINK_WriteReg(R2, 0x20000184)
T1258 000:380.316 - 0.005ms returns 0
T1258 000:380.322 JLINK_WriteReg(R3, 0x00000000)
T1258 000:380.326 - 0.004ms returns 0
T1258 000:380.332 JLINK_WriteReg(R4, 0x00000000)
T1258 000:380.337 - 0.004ms returns 0
T1258 000:380.342 JLINK_WriteReg(R5, 0x00000000)
T1258 000:380.347 - 0.004ms returns 0
T1258 000:380.352 JLINK_WriteReg(R6, 0x00000000)
T1258 000:380.357 - 0.004ms returns 0
T1258 000:380.363 JLINK_WriteReg(R7, 0x00000000)
T1258 000:380.367 - 0.004ms returns 0
T1258 000:380.373 JLINK_WriteReg(R8, 0x00000000)
T1258 000:380.378 - 0.004ms returns 0
T1258 000:380.383 JLINK_WriteReg(R9, 0x20000180)
T1258 000:380.388 - 0.004ms returns 0
T1258 000:380.393 JLINK_WriteReg(R10, 0x00000000)
T1258 000:380.398 - 0.004ms returns 0
T1258 000:380.404 JLINK_WriteReg(R11, 0x00000000)
T1258 000:380.408 - 0.004ms returns 0
T1258 000:380.414 JLINK_WriteReg(R12, 0x00000000)
T1258 000:380.419 - 0.004ms returns 0
T1258 000:380.424 JLINK_WriteReg(R13 (SP), 0x20001000)
T1258 000:380.430 - 0.005ms returns 0
T1258 000:380.435 JLINK_WriteReg(R14, 0x20000001)
T1258 000:380.440 - 0.004ms returns 0
T1258 000:380.446 JLINK_WriteReg(R15 (PC), 0x2000010C)
T1258 000:380.451 - 0.005ms returns 0
T1258 000:380.456 JLINK_WriteReg(XPSR, 0x01000000)
T1258 000:380.461 - 0.004ms returns 0
T1258 000:380.467 JLINK_WriteReg(MSP, 0x20001000)
T1258 000:380.471 - 0.004ms returns 0
T1258 000:380.477 JLINK_WriteReg(PSP, 0x20001000)
T1258 000:380.482 - 0.004ms returns 0
T1258 000:380.487 JLINK_WriteReg(CFBP, 0x00000000)
T1258 000:380.492 - 0.004ms returns 0
T1258 000:380.498 JLINK_SetBPEx(Addr = 0x20000000, Type = 0xFFFFFFF2)
T1258 000:380.503 - 0.005ms returns 0x00000006
T1258 000:380.508 JLINK_Go()
T1258 000:380.519   CPU_ReadMem(4 bytes @ 0xE0001000)
T1258 000:383.590 - 3.081ms
T1258 000:383.603 JLINK_IsHalted()
T1258 000:383.967 - 0.364ms returns FALSE
T1258 000:383.979 JLINK_HasError()
T1258 000:387.317 JLINK_IsHalted()
T1258 000:387.724 - 0.406ms returns FALSE
T1258 000:387.739 JLINK_HasError()
T1258 000:390.374 JLINK_IsHalted()
T1258 000:390.716 - 0.344ms returns FALSE
T1258 000:390.727 JLINK_HasError()
T1258 000:392.379 JLINK_IsHalted()
T1258 000:392.721 - 0.341ms returns FALSE
T1258 000:392.732 JLINK_HasError()
T1258 000:394.097 JLINK_IsHalted()
T1258 000:394.467 - 0.370ms returns FALSE
T1258 000:394.479 JLINK_HasError()
T1258 000:397.314 JLINK_IsHalted()
T1258 000:399.735   CPU_ReadMem(2 bytes @ 0x20000000)
T1258 000:400.076 - 2.761ms returns TRUE
T1258 000:400.089 JLINK_ReadReg(R15 (PC))
T1258 000:400.097 - 0.007ms returns 0x20000000
T1258 000:400.103 JLINK_ClrBPEx(BPHandle = 0x00000006)
T1258 000:400.109 - 0.005ms returns 0x00
T1258 000:400.115 JLINK_ReadReg(R0)
T1258 000:400.121 - 0.005ms returns 0x00000000
T1258 000:400.499 JLINK_WriteMem(0x20000184, 0x27C Bytes, ...)
T1258 000:400.508   Data:  BD E8 10 40 5F EA 82 7C 24 BF 51 F8 04 3B 40 F8 ...
T1258 000:400.521   CPU_WriteMem(636 bytes @ 0x20000184)
T1258 000:403.202 - 2.702ms returns 0x27C
T1258 000:403.216 JLINK_WriteMem(0x20000400, 0x184 Bytes, ...)
T1258 000:403.222   Data:  44 EA 45 04 20 43 90 60 D0 6A 20 F4 70 00 0C 7D ...
T1258 000:403.235   CPU_WriteMem(388 bytes @ 0x20000400)
T1258 000:404.933 - 1.716ms returns 0x184
T1258 000:404.945 JLINK_HasError()
T1258 000:404.951 JLINK_WriteReg(R0, 0x08000400)
T1258 000:404.958 - 0.006ms returns 0
T1258 000:404.964 JLINK_WriteReg(R1, 0x00000400)
T1258 000:404.969 - 0.005ms returns 0
T1258 000:404.975 JLINK_WriteReg(R2, 0x20000184)
T1258 000:404.979 - 0.004ms returns 0
T1258 000:404.985 JLINK_WriteReg(R3, 0x00000000)
T1258 000:404.990 - 0.004ms returns 0
T1258 000:404.995 JLINK_WriteReg(R4, 0x00000000)
T1258 000:405.000 - 0.004ms returns 0
T1258 000:405.006 JLINK_WriteReg(R5, 0x00000000)
T1258 000:405.073 - 0.066ms returns 0
T1258 000:405.079 JLINK_WriteReg(R6, 0x00000000)
T1258 000:405.084 - 0.005ms returns 0
T1258 000:405.090 JLINK_WriteReg(R7, 0x00000000)
T1258 000:405.096 - 0.005ms returns 0
T1258 000:405.102 JLINK_WriteReg(R8, 0x00000000)
T1258 000:405.107 - 0.005ms returns 0
T1258 000:405.113 JLINK_WriteReg(R9, 0x20000180)
T1258 000:405.118 - 0.005ms returns 0
T1258 000:405.124 JLINK_WriteReg(R10, 0x00000000)
T1258 000:405.129 - 0.005ms returns 0
T1258 000:405.135 JLINK_WriteReg(R11, 0x00000000)
T1258 000:405.140 - 0.005ms returns 0
T1258 000:405.146 JLINK_WriteReg(R12, 0x00000000)
T1258 000:405.152 - 0.005ms returns 0
T1258 000:405.158 JLINK_WriteReg(R13 (SP), 0x20001000)
T1258 000:405.163 - 0.005ms returns 0
T1258 000:405.169 JLINK_WriteReg(R14, 0x20000001)
T1258 000:405.174 - 0.005ms returns 0
T1258 000:405.180 JLINK_WriteReg(R15 (PC), 0x2000010C)
T1258 000:405.185 - 0.004ms returns 0
T1258 000:405.191 JLINK_WriteReg(XPSR, 0x01000000)
T1258 000:405.195 - 0.004ms returns 0
T1258 000:405.201 JLINK_WriteReg(MSP, 0x20001000)
T1258 000:405.206 - 0.004ms returns 0
T1258 000:405.211 JLINK_WriteReg(PSP, 0x20001000)
T1258 000:405.216 - 0.004ms returns 0
T1258 000:405.222 JLINK_WriteReg(CFBP, 0x00000000)
T1258 000:405.227 - 0.004ms returns 0
T1258 000:405.232 JLINK_SetBPEx(Addr = 0x20000000, Type = 0xFFFFFFF2)
T1258 000:405.238 - 0.006ms returns 0x00000007
T1258 000:405.244 JLINK_Go()
T1258 000:405.255   CPU_ReadMem(4 bytes @ 0xE0001000)
T1258 000:408.151 - 2.906ms
T1258 000:408.170 JLINK_IsHalted()
T1258 000:408.596 - 0.425ms returns FALSE
T1258 000:408.610 JLINK_HasError()
T1258 000:413.116 JLINK_IsHalted()
T1258 000:413.596 - 0.480ms returns FALSE
T1258 000:413.609 JLINK_HasError()
T1258 000:415.137 JLINK_IsHalted()
T1258 000:415.570 - 0.433ms returns FALSE
T1258 000:415.585 JLINK_HasError()
T1258 000:417.382 JLINK_IsHalted()
T1258 000:417.762 - 0.379ms returns FALSE
T1258 000:417.773 JLINK_HasError()
T1258 000:419.282 JLINK_IsHalted()
T1258 000:419.723 - 0.440ms returns FALSE
T1258 000:419.736 JLINK_HasError()
T1258 000:423.321 JLINK_IsHalted()
T1258 000:425.936   CPU_ReadMem(2 bytes @ 0x20000000)
T1258 000:426.366 - 3.045ms returns TRUE
T1258 000:426.379 JLINK_ReadReg(R15 (PC))
T1258 000:426.387 - 0.007ms returns 0x20000000
T1258 000:426.393 JLINK_ClrBPEx(BPHandle = 0x00000007)
T1258 000:426.399 - 0.005ms returns 0x00
T1258 000:426.405 JLINK_ReadReg(R0)
T1258 000:426.410 - 0.005ms returns 0x00000000
T1258 000:426.814 JLINK_WriteMem(0x20000184, 0x27C Bytes, ...)
T1258 000:426.823   Data:  01 F3 15 68 05 EA 03 04 9C 42 34 D1 05 68 4F 00 ...
T1258 000:426.837   CPU_WriteMem(636 bytes @ 0x20000184)
T1258 000:429.272 - 2.458ms returns 0x27C
T1258 000:429.292 JLINK_WriteMem(0x20000400, 0x184 Bytes, ...)
T1258 000:429.298   Data:  D3 43 83 82 70 47 21 B1 02 88 42 F0 01 02 02 80 ...
T1258 000:429.314   CPU_WriteMem(388 bytes @ 0x20000400)
T1258 000:431.084 - 1.792ms returns 0x184
T1258 000:431.103 JLINK_HasError()
T1258 000:431.111 JLINK_WriteReg(R0, 0x08000800)
T1258 000:431.119 - 0.008ms returns 0
T1258 000:431.125 JLINK_WriteReg(R1, 0x00000400)
T1258 000:431.131 - 0.005ms returns 0
T1258 000:431.137 JLINK_WriteReg(R2, 0x20000184)
T1258 000:431.142 - 0.005ms returns 0
T1258 000:431.148 JLINK_WriteReg(R3, 0x00000000)
T1258 000:431.152 - 0.005ms returns 0
T1258 000:431.158 JLINK_WriteReg(R4, 0x00000000)
T1258 000:431.163 - 0.004ms returns 0
T1258 000:431.168 JLINK_WriteReg(R5, 0x00000000)
T1258 000:431.173 - 0.004ms returns 0
T1258 000:431.178 JLINK_WriteReg(R6, 0x00000000)
T1258 000:431.183 - 0.004ms returns 0
T1258 000:431.189 JLINK_WriteReg(R7, 0x00000000)
T1258 000:431.193 - 0.004ms returns 0
T1258 000:431.199 JLINK_WriteReg(R8, 0x00000000)
T1258 000:431.204 - 0.004ms returns 0
T1258 000:431.209 JLINK_WriteReg(R9, 0x20000180)
T1258 000:431.214 - 0.004ms returns 0
T1258 000:431.219 JLINK_WriteReg(R10, 0x00000000)
T1258 000:431.224 - 0.004ms returns 0
T1258 000:431.230 JLINK_WriteReg(R11, 0x00000000)
T1258 000:431.239 - 0.009ms returns 0
T1258 000:431.248 JLINK_WriteReg(R12, 0x00000000)
T1258 000:431.254 - 0.005ms returns 0
T1258 000:431.259 JLINK_WriteReg(R13 (SP), 0x20001000)
T1258 000:431.264 - 0.005ms returns 0
T1258 000:431.270 JLINK_WriteReg(R14, 0x20000001)
T1258 000:431.275 - 0.004ms returns 0
T1258 000:431.280 JLINK_WriteReg(R15 (PC), 0x2000010C)
T1258 000:431.285 - 0.004ms returns 0
T1258 000:431.290 JLINK_WriteReg(XPSR, 0x01000000)
T1258 000:431.295 - 0.004ms returns 0
T1258 000:431.300 JLINK_WriteReg(MSP, 0x20001000)
T1258 000:431.305 - 0.004ms returns 0
T1258 000:431.311 JLINK_WriteReg(PSP, 0x20001000)
T1258 000:431.315 - 0.004ms returns 0
T1258 000:431.321 JLINK_WriteReg(CFBP, 0x00000000)
T1258 000:431.325 - 0.004ms returns 0
T1258 000:431.331 JLINK_SetBPEx(Addr = 0x20000000, Type = 0xFFFFFFF2)
T1258 000:431.337 - 0.006ms returns 0x00000008
T1258 000:431.343 JLINK_Go()
T1258 000:431.355   CPU_ReadMem(4 bytes @ 0xE0001000)
T1258 000:434.133 - 2.789ms
T1258 000:434.148 JLINK_IsHalted()
T1258 000:434.454 - 0.305ms returns FALSE
T1258 000:434.469 JLINK_HasError()
T1258 000:437.305 JLINK_IsHalted()
T1258 000:437.704 - 0.398ms returns FALSE
T1258 000:437.716 JLINK_HasError()
T1258 000:439.209 JLINK_IsHalted()
T1258 000:439.595 - 0.387ms returns FALSE
T1258 000:439.608 JLINK_HasError()
T1258 000:441.310 JLINK_IsHalted()
T1258 000:441.638 - 0.327ms returns FALSE
T1258 000:441.649 JLINK_HasError()
T1258 000:443.372 JLINK_IsHalted()
T1258 000:443.715 - 0.345ms returns FALSE
T1258 000:443.727 JLINK_HasError()
T1258 000:446.369 JLINK_IsHalted()
T1258 000:448.688   CPU_ReadMem(2 bytes @ 0x20000000)
T1258 000:449.083 - 2.714ms returns TRUE
T1258 000:449.095 JLINK_ReadReg(R15 (PC))
T1258 000:449.102 - 0.007ms returns 0x20000000
T1258 000:449.108 JLINK_ClrBPEx(BPHandle = 0x00000008)
T1258 000:449.114 - 0.005ms returns 0x00
T1258 000:449.120 JLINK_ReadReg(R0)
T1258 000:449.125 - 0.005ms returns 0x00000000
T1258 000:449.519 JLINK_WriteMem(0x20000184, 0x27C Bytes, ...)
T1258 000:449.529   Data:  7A 71 90 FB F1 F0 40 1C 20 84 A6 83 20 88 40 F0 ...
T1258 000:449.541   CPU_WriteMem(636 bytes @ 0x20000184)
T1258 000:451.858 - 2.338ms returns 0x27C
T1258 000:451.873 JLINK_WriteMem(0x20000400, 0x184 Bytes, ...)
T1258 000:451.878   Data:  32 43 20 77 61 69 74 20 74 69 6D 65 6F 75 74 2C ...
T1258 000:451.890   CPU_WriteMem(388 bytes @ 0x20000400)
T1258 000:453.402 - 1.529ms returns 0x184
T1258 000:453.416 JLINK_HasError()
T1258 000:453.424 JLINK_WriteReg(R0, 0x08000C00)
T1258 000:453.434 - 0.010ms returns 0
T1258 000:453.440 JLINK_WriteReg(R1, 0x00000400)
T1258 000:453.445 - 0.005ms returns 0
T1258 000:453.451 JLINK_WriteReg(R2, 0x20000184)
T1258 000:453.455 - 0.004ms returns 0
T1258 000:453.461 JLINK_WriteReg(R3, 0x00000000)
T1258 000:453.466 - 0.005ms returns 0
T1258 000:453.471 JLINK_WriteReg(R4, 0x00000000)
T1258 000:453.476 - 0.004ms returns 0
T1258 000:453.482 JLINK_WriteReg(R5, 0x00000000)
T1258 000:453.486 - 0.004ms returns 0
T1258 000:453.492 JLINK_WriteReg(R6, 0x00000000)
T1258 000:453.497 - 0.004ms returns 0
T1258 000:453.502 JLINK_WriteReg(R7, 0x00000000)
T1258 000:453.507 - 0.004ms returns 0
T1258 000:453.513 JLINK_WriteReg(R8, 0x00000000)
T1258 000:453.517 - 0.004ms returns 0
T1258 000:453.523 JLINK_WriteReg(R9, 0x20000180)
T1258 000:453.528 - 0.004ms returns 0
T1258 000:453.533 JLINK_WriteReg(R10, 0x00000000)
T1258 000:453.538 - 0.004ms returns 0
T1258 000:453.544 JLINK_WriteReg(R11, 0x00000000)
T1258 000:453.549 - 0.004ms returns 0
T1258 000:453.554 JLINK_WriteReg(R12, 0x00000000)
T1258 000:453.559 - 0.004ms returns 0
T1258 000:453.565 JLINK_WriteReg(R13 (SP), 0x20001000)
T1258 000:453.570 - 0.005ms returns 0
T1258 000:453.576 JLINK_WriteReg(R14, 0x20000001)
T1258 000:453.580 - 0.004ms returns 0
T1258 000:453.586 JLINK_WriteReg(R15 (PC), 0x2000010C)
T1258 000:453.591 - 0.004ms returns 0
T1258 000:453.596 JLINK_WriteReg(XPSR, 0x01000000)
T1258 000:453.601 - 0.004ms returns 0
T1258 000:453.607 JLINK_WriteReg(MSP, 0x20001000)
T1258 000:453.616 - 0.009ms returns 0
T1258 000:453.625 JLINK_WriteReg(PSP, 0x20001000)
T1258 000:453.630 - 0.005ms returns 0
T1258 000:453.636 JLINK_WriteReg(CFBP, 0x00000000)
T1258 000:453.640 - 0.004ms returns 0
T1258 000:453.646 JLINK_SetBPEx(Addr = 0x20000000, Type = 0xFFFFFFF2)
T1258 000:453.652 - 0.006ms returns 0x00000009
T1258 000:453.658 JLINK_Go()
T1258 000:453.669   CPU_ReadMem(4 bytes @ 0xE0001000)
T1258 000:456.868 - 3.209ms
T1258 000:456.881 JLINK_IsHalted()
T1258 000:457.267 - 0.386ms returns FALSE
T1258 000:457.279 JLINK_HasError()
T1258 000:460.452 JLINK_IsHalted()
T1258 000:460.864 - 0.412ms returns FALSE
T1258 000:460.876 JLINK_HasError()
T1258 000:462.397 JLINK_IsHalted()
T1258 000:462.786 - 0.388ms returns FALSE
T1258 000:462.798 JLINK_HasError()
T1258 000:464.390 JLINK_IsHalted()
T1258 000:464.843 - 0.452ms returns FALSE
T1258 000:464.854 JLINK_HasError()
T1258 000:466.173 JLINK_IsHalted()
T1258 000:466.596 - 0.423ms returns FALSE
T1258 000:466.608 JLINK_HasError()
T1258 000:469.395 JLINK_IsHalted()
T1258 000:472.133   CPU_ReadMem(2 bytes @ 0x20000000)
T1258 000:472.491 - 3.095ms returns TRUE
T1258 000:472.505 JLINK_ReadReg(R15 (PC))
T1258 000:472.512 - 0.007ms returns 0x20000000
T1258 000:472.520 JLINK_ClrBPEx(BPHandle = 0x00000009)
T1258 000:472.525 - 0.005ms returns 0x00
T1258 000:472.532 JLINK_ReadReg(R0)
T1258 000:472.537 - 0.005ms returns 0x00000000
T1258 000:472.930 JLINK_WriteMem(0x20000184, 0x27C Bytes, ...)
T1258 000:472.940   Data:  FF F7 40 FE 07 46 FF F7 07 FF 47 EA 06 28 40 46 ...
T1258 000:472.952   CPU_WriteMem(636 bytes @ 0x20000184)
T1258 000:475.425 - 2.495ms returns 0x27C
T1258 000:475.440 JLINK_WriteMem(0x20000400, 0x184 Bytes, ...)
T1258 000:475.446   Data:  44 38 02 40 F0 B5 00 21 00 22 00 24 02 25 00 26 ...
T1258 000:475.463   CPU_WriteMem(388 bytes @ 0x20000400)
T1258 000:477.230 - 1.789ms returns 0x184
T1258 000:477.244 JLINK_HasError()
T1258 000:477.252 JLINK_WriteReg(R0, 0x08001000)
T1258 000:477.259 - 0.007ms returns 0
T1258 000:477.266 JLINK_WriteReg(R1, 0x00000400)
T1258 000:477.271 - 0.005ms returns 0
T1258 000:477.277 JLINK_WriteReg(R2, 0x20000184)
T1258 000:477.282 - 0.004ms returns 0
T1258 000:477.287 JLINK_WriteReg(R3, 0x00000000)
T1258 000:477.292 - 0.004ms returns 0
T1258 000:477.298 JLINK_WriteReg(R4, 0x00000000)
T1258 000:477.302 - 0.004ms returns 0
T1258 000:477.308 JLINK_WriteReg(R5, 0x00000000)
T1258 000:477.313 - 0.004ms returns 0
T1258 000:477.318 JLINK_WriteReg(R6, 0x00000000)
T1258 000:477.323 - 0.004ms returns 0
T1258 000:477.328 JLINK_WriteReg(R7, 0x00000000)
T1258 000:477.333 - 0.004ms returns 0
T1258 000:477.339 JLINK_WriteReg(R8, 0x00000000)
T1258 000:477.344 - 0.004ms returns 0
T1258 000:477.349 JLINK_WriteReg(R9, 0x20000180)
T1258 000:477.354 - 0.004ms returns 0
T1258 000:477.360 JLINK_WriteReg(R10, 0x00000000)
T1258 000:477.365 - 0.005ms returns 0
T1258 000:477.370 JLINK_WriteReg(R11, 0x00000000)
T1258 000:477.375 - 0.004ms returns 0
T1258 000:477.381 JLINK_WriteReg(R12, 0x00000000)
T1258 000:477.385 - 0.004ms returns 0
T1258 000:477.391 JLINK_WriteReg(R13 (SP), 0x20001000)
T1258 000:477.396 - 0.005ms returns 0
T1258 000:477.402 JLINK_WriteReg(R14, 0x20000001)
T1258 000:477.407 - 0.004ms returns 0
T1258 000:477.412 JLINK_WriteReg(R15 (PC), 0x2000010C)
T1258 000:477.417 - 0.005ms returns 0
T1258 000:477.423 JLINK_WriteReg(XPSR, 0x01000000)
T1258 000:477.428 - 0.004ms returns 0
T1258 000:477.433 JLINK_WriteReg(MSP, 0x20001000)
T1258 000:477.438 - 0.004ms returns 0
T1258 000:477.443 JLINK_WriteReg(PSP, 0x20001000)
T1258 000:477.448 - 0.004ms returns 0
T1258 000:477.454 JLINK_WriteReg(CFBP, 0x00000000)
T1258 000:477.458 - 0.004ms returns 0
T1258 000:477.464 JLINK_SetBPEx(Addr = 0x20000000, Type = 0xFFFFFFF2)
T1258 000:477.470 - 0.006ms returns 0x0000000A
T1258 000:477.476 JLINK_Go()
T1258 000:477.487   CPU_ReadMem(4 bytes @ 0xE0001000)
T1258 000:480.730 - 3.254ms
T1258 000:480.741 JLINK_IsHalted()
T1258 000:481.114 - 0.372ms returns FALSE
T1258 000:481.130 JLINK_HasError()
T1258 000:484.197 JLINK_IsHalted()
T1258 000:484.597 - 0.401ms returns FALSE
T1258 000:484.611 JLINK_HasError()
T1258 000:486.390 JLINK_IsHalted()
T1258 000:486.864 - 0.474ms returns FALSE
T1258 000:486.876 JLINK_HasError()
T1258 000:488.395 JLINK_IsHalted()
T1258 000:488.824 - 0.428ms returns FALSE
T1258 000:488.835 JLINK_HasError()
T1258 000:490.179 JLINK_IsHalted()
T1258 000:490.495 - 0.316ms returns FALSE
T1258 000:490.508 JLINK_HasError()
T1258 000:493.398 JLINK_IsHalted()
T1258 000:495.997   CPU_ReadMem(2 bytes @ 0x20000000)
T1258 000:496.369 - 2.971ms returns TRUE
T1258 000:496.381 JLINK_ReadReg(R15 (PC))
T1258 000:496.388 - 0.006ms returns 0x20000000
T1258 000:496.394 JLINK_ClrBPEx(BPHandle = 0x0000000A)
T1258 000:496.400 - 0.005ms returns 0x00
T1258 000:496.405 JLINK_ReadReg(R0)
T1258 000:496.411 - 0.005ms returns 0x00000000
T1258 000:496.777 JLINK_WriteMem(0x20000184, 0x27C Bytes, ...)
T1258 000:496.786   Data:  01 28 11 D0 02 28 26 D1 1E E0 48 46 00 F0 34 FC ...
T1258 000:496.799   CPU_WriteMem(636 bytes @ 0x20000184)
T1258 000:499.325 - 2.542ms returns 0x27C
T1258 000:499.361 JLINK_WriteMem(0x20000400, 0x184 Bytes, ...)
T1258 000:499.367   Data:  50 46 16 9A FF F7 8A FE DD E9 16 10 08 44 17 90 ...
T1258 000:499.385   CPU_WriteMem(388 bytes @ 0x20000400)
T1258 000:500.941 - 1.580ms returns 0x184
T1258 000:500.955 JLINK_HasError()
T1258 000:500.990 JLINK_WriteReg(R0, 0x08001400)
T1258 000:500.998 - 0.008ms returns 0
T1258 000:501.004 JLINK_WriteReg(R1, 0x00000400)
T1258 000:501.009 - 0.005ms returns 0
T1258 000:501.015 JLINK_WriteReg(R2, 0x20000184)
T1258 000:501.020 - 0.005ms returns 0
T1258 000:501.025 JLINK_WriteReg(R3, 0x00000000)
T1258 000:501.030 - 0.004ms returns 0
T1258 000:501.036 JLINK_WriteReg(R4, 0x00000000)
T1258 000:501.041 - 0.004ms returns 0
T1258 000:501.046 JLINK_WriteReg(R5, 0x00000000)
T1258 000:501.051 - 0.004ms returns 0
T1258 000:501.056 JLINK_WriteReg(R6, 0x00000000)
T1258 000:501.061 - 0.004ms returns 0
T1258 000:501.067 JLINK_WriteReg(R7, 0x00000000)
T1258 000:501.071 - 0.004ms returns 0
T1258 000:501.077 JLINK_WriteReg(R8, 0x00000000)
T1258 000:501.082 - 0.004ms returns 0
T1258 000:501.087 JLINK_WriteReg(R9, 0x20000180)
T1258 000:501.092 - 0.004ms returns 0
T1258 000:501.098 JLINK_WriteReg(R10, 0x00000000)
T1258 000:501.102 - 0.004ms returns 0
T1258 000:501.108 JLINK_WriteReg(R11, 0x00000000)
T1258 000:501.113 - 0.004ms returns 0
T1258 000:501.118 JLINK_WriteReg(R12, 0x00000000)
T1258 000:501.123 - 0.004ms returns 0
T1258 000:501.128 JLINK_WriteReg(R13 (SP), 0x20001000)
T1258 000:501.148 - 0.019ms returns 0
T1258 000:501.154 JLINK_WriteReg(R14, 0x20000001)
T1258 000:501.159 - 0.005ms returns 0
T1258 000:501.165 JLINK_WriteReg(R15 (PC), 0x2000010C)
T1258 000:501.171 - 0.005ms returns 0
T1258 000:501.177 JLINK_WriteReg(XPSR, 0x01000000)
T1258 000:501.182 - 0.005ms returns 0
T1258 000:501.188 JLINK_WriteReg(MSP, 0x20001000)
T1258 000:501.194 - 0.005ms returns 0
T1258 000:501.200 JLINK_WriteReg(PSP, 0x20001000)
T1258 000:501.205 - 0.005ms returns 0
T1258 000:501.211 JLINK_WriteReg(CFBP, 0x00000000)
T1258 000:501.216 - 0.005ms returns 0
T1258 000:501.222 JLINK_SetBPEx(Addr = 0x20000000, Type = 0xFFFFFFF2)
T1258 000:501.229 - 0.006ms returns 0x0000000B
T1258 000:501.234 JLINK_Go()
T1258 000:501.247   CPU_ReadMem(4 bytes @ 0xE0001000)
T1258 000:504.178 - 2.943ms
T1258 000:504.192 JLINK_IsHalted()
T1258 000:504.534 - 0.341ms returns FALSE
T1258 000:504.545 JLINK_HasError()
T1258 000:508.200 JLINK_IsHalted()
T1258 000:508.687 - 0.490ms returns FALSE
T1258 000:508.696 JLINK_HasError()
T1258 000:510.193 JLINK_IsHalted()
T1258 000:510.665 - 0.473ms returns FALSE
T1258 000:510.673 JLINK_HasError()
T1258 000:512.189 JLINK_IsHalted()
T1258 000:512.627 - 0.439ms returns FALSE
T1258 000:512.635 JLINK_HasError()
T1258 000:514.140 JLINK_IsHalted()
T1258 000:514.478 - 0.338ms returns FALSE
T1258 000:514.485 JLINK_HasError()
T1258 000:517.204 JLINK_IsHalted()
T1258 000:519.917   CPU_ReadMem(2 bytes @ 0x20000000)
T1258 000:520.345 - 3.144ms returns TRUE
T1258 000:520.357 JLINK_ReadReg(R15 (PC))
T1258 000:520.365 - 0.007ms returns 0x20000000
T1258 000:520.371 JLINK_ClrBPEx(BPHandle = 0x0000000B)
T1258 000:520.376 - 0.005ms returns 0x00
T1258 000:520.382 JLINK_ReadReg(R0)
T1258 000:520.387 - 0.004ms returns 0x00000000
T1258 000:520.763 JLINK_WriteMem(0x20000184, 0x27C Bytes, ...)
T1258 000:520.772   Data:  08 1F 00 68 20 F4 80 20 09 1F 08 60 00 20 06 49 ...
T1258 000:520.784   CPU_WriteMem(636 bytes @ 0x20000184)
T1258 000:523.404 - 2.640ms returns 0x27C
T1258 000:523.417 JLINK_WriteMem(0x20000400, 0x184 Bytes, ...)
T1258 000:523.423   Data:  2D E9 FF 47 05 46 0E 46 00 24 A1 46 00 BF A0 46 ...
T1258 000:523.434   CPU_WriteMem(388 bytes @ 0x20000400)
T1258 000:525.236 - 1.818ms returns 0x184
T1258 000:525.248 JLINK_HasError()
T1258 000:525.255 JLINK_WriteReg(R0, 0x08001800)
T1258 000:525.262 - 0.007ms returns 0
T1258 000:525.269 JLINK_WriteReg(R1, 0x00000400)
T1258 000:525.274 - 0.005ms returns 0
T1258 000:525.280 JLINK_WriteReg(R2, 0x20000184)
T1258 000:525.285 - 0.005ms returns 0
T1258 000:525.291 JLINK_WriteReg(R3, 0x00000000)
T1258 000:525.296 - 0.005ms returns 0
T1258 000:525.301 JLINK_WriteReg(R4, 0x00000000)
T1258 000:525.306 - 0.004ms returns 0
T1258 000:525.312 JLINK_WriteReg(R5, 0x00000000)
T1258 000:525.316 - 0.004ms returns 0
T1258 000:525.322 JLINK_WriteReg(R6, 0x00000000)
T1258 000:525.327 - 0.004ms returns 0
T1258 000:525.332 JLINK_WriteReg(R7, 0x00000000)
T1258 000:525.337 - 0.004ms returns 0
T1258 000:525.343 JLINK_WriteReg(R8, 0x00000000)
T1258 000:525.347 - 0.004ms returns 0
T1258 000:525.353 JLINK_WriteReg(R9, 0x20000180)
T1258 000:525.358 - 0.004ms returns 0
T1258 000:525.363 JLINK_WriteReg(R10, 0x00000000)
T1258 000:525.368 - 0.005ms returns 0
T1258 000:525.374 JLINK_WriteReg(R11, 0x00000000)
